! TOUCHSTONE file generated by CST MICROWAVE STUDIO
! Date and time: Fri Oct 24 10:10:08 2014
! Project name: Untitled_0.cst
# GHZ S MA R 50
0.1                   0.00555927         10.7303       0.00155015        -92.7634         0.994491       -0.205063       0.00359333        -91.1882  
                      0.00136579        -90.7726       0.00550751         10.9357       0.00342854        -90.5636         0.994459       -0.204239  
                        0.994507       -0.205815       0.00360671        -91.4667       0.00553787         10.9247       0.00153533        -92.7203  
                      0.00342285        -90.5986         0.994452       -0.205427       0.00136952        -91.3351       0.00550924         11.1579  
0.1099                0.00557833         11.8428       0.00113023        -94.0892         0.994496       -0.225072       0.00342044        -91.3877  
                      0.00113602        -91.0705       0.00551834         12.2086       0.00340072        -90.4899         0.994502       -0.226439  
                        0.994502       -0.225793       0.00338723        -91.6675       0.00556675         12.0101       0.00116152        -93.9811  
                      0.00340059        -90.5572         0.994432       -0.224835        0.0011382        -91.3025       0.00560073         11.7704  
0.1198                0.00560001         12.9518      0.000763699        -95.9404           0.9945       -0.245111       0.00328815        -91.4953  
                     0.000913528        -91.3546        0.0055358          13.624       0.00337998        -90.4169         0.994535       -0.246687  
                        0.994498       -0.245739       0.00322244        -91.7497       0.00559699         13.0792      0.000827571        -95.6926  
                       0.0033846        -90.5234         0.994408       -0.243258      0.000913891        -91.2332       0.00565076         12.8442  
0.129700008           0.00562447         14.0559      0.000438902        -99.6178         0.994504       -0.265174       0.00318789        -91.5376  
                     0.000697744        -91.6402       0.00558017         15.2079       0.00336575        -90.3457         0.994553       -0.266452  
                        0.994493        -0.26565       0.00309932        -91.7522       0.00562859         14.1328      0.000525833        -98.7083  
                      0.00337436         -90.497           0.9944       -0.259609      0.000696023        -91.1001       0.00568736         13.9214  
0.1396                0.00565188          15.153      0.000152621        -115.365         0.994507       -0.285259       0.00311335        -91.5345  
                     0.000488149        -91.9625       0.00567719         16.5799        0.0033575        -90.2774         0.994561       -0.286214  
                        0.994489       -0.285528       0.00300863        -91.7027       0.00566156         15.1713       0.00025276        -107.197  
                      0.00336937        -90.4782         0.994471       -0.275666      0.000484097        -90.8295       0.00572029         14.9779  
0.1495                0.00568239         16.2403      0.000142943         113.206         0.994509       -0.305363       0.00305973         -91.501  
                     0.000284277        -92.4466       0.00577532         17.2608       0.00335476        -90.2128         0.994564       -0.306059  
                        0.994486       -0.305377       0.00294368        -91.6214        0.0056959         16.1949     7.02798e-005         166.768  
                      0.00336921        -90.4666         0.994563       -0.297521      0.000277677        -90.1333       0.00575258         16.0154  
0.1594                0.00571611         17.3143      0.000382879         97.0276         0.994511       -0.325484       0.00302337        -91.4482  
                     8.5737e-005        -94.3355       0.00582499         17.7642       0.00335711        -90.1526         0.994565       -0.325985  
                        0.994484       -0.325206       0.00289946        -91.5226       0.00573162         17.2041      0.000263683         103.441  
                      0.00337348        -90.4621         0.994586       -0.320961     7.65834e-005        -85.7405       0.00578538         17.0362  
0.1693                0.00575304         18.3707      0.000612829         93.4942         0.994513        -0.34562        0.0030014        -91.3844  
                     0.000108106         89.9813       0.00585222         18.4362       0.00336416        -90.0973         0.994564       -0.345975  
                        0.994483       -0.345032       0.00287219        -91.4165       0.00576872         18.1989      0.000485471         96.3593  
                      0.00338184        -90.4644          0.99458       -0.343146      0.000120836         84.3161       0.00581922          18.042  
0.1792                0.00579304         19.4049      0.000829805         91.9397         0.994514       -0.365768       0.00299155        -91.3157  
                      0.00029722         88.6041       0.00587672         19.2421       0.00337558        -90.0474         0.994562       -0.366015  
                        0.994483       -0.364876       0.00285893        -91.3105       0.00580719         19.1794      0.000697925         93.7898  
                      0.00339395        -90.4732          0.99457       -0.364446      0.000313032         86.6724       0.00585434         19.0335  
0.1891                0.00583583          20.413       0.00103538         91.0622         0.994514       -0.385927       0.00299198        -91.2467  
                     0.000482142         88.2182       0.00590384          20.116       0.00339104         -90.003         0.994559       -0.386091  
                        0.994484        -0.38476       0.00285739        -91.2092       0.00584702         20.1458      0.000900835          92.452  
                      0.00340951        -90.4881          0.99456       -0.385285      0.000501314         87.2242       0.00589089         20.0111  
0.199                 0.00588094          21.392       0.00123116         90.5001         0.994514       -0.406095       0.00300123        -91.1803  
                     0.000663136         87.9979        0.0059344         21.0202       0.00341026        -89.9644         0.994556       -0.406194  
                        0.994486        -0.40471       0.00286573         -91.116       0.00588822          21.098       0.00109523         91.6278  
                      0.00342826        -90.5087         0.994551        -0.40588      0.000685858         87.4698       0.00592893          20.975  
0.2089                0.00592784         22.3411       0.00141854         90.1122         0.994514       -0.426272       0.00301807        -91.1189  
                     0.000840461           87.84       0.00596819         21.9355       0.00343298        -89.9318         0.994552       -0.426319  
                        0.994489       -0.424741       0.00288249        -91.0328       0.00593078         22.0362       0.00128216          91.069  
                      0.00344995        -90.5346         0.994543       -0.426335      0.000866908         87.6095       0.00596849         21.9254  
0.2188                0.00597599         23.2612       0.00159868         89.8315         0.994513       -0.446457        0.0030415        -91.0638  
                      0.00101435         87.7151       0.00600487         22.8516       0.00345894         -89.905         0.994548       -0.446459  
                        0.994492       -0.444861       0.00290646        -90.9607       0.00597468         22.9602       0.00146256         90.6662  
                      0.00347433        -90.5652         0.994536       -0.446706        0.0010447         87.7006       0.00600958          22.862  
0.2287                0.00602495         24.1549       0.00177255         89.6218         0.994512       -0.466647       0.00307069        -91.0158  
                      0.00118502         87.6108       0.00604413         23.7629       0.00348795        -89.8841         0.994544       -0.466613  
                        0.994495       -0.465067       0.00293665        -90.9001       0.00601991         23.8702       0.00163722         90.3636  
                       0.0035012        -90.6002         0.994529       -0.467021       0.00121944         87.7659        0.0060522          23.785  
0.2386                0.00607442         25.0257       0.00194094         89.4618          0.99451       -0.486844       0.00310492        -90.9754  
                      0.00135266         87.5207        0.0060857         24.6661       0.00351978        -89.8691          0.99454       -0.486776  
                        0.994497       -0.485346       0.00297226         -90.851       0.00606645         24.7661       0.00180684         90.1294  
                      0.00353036        -90.6389         0.994522         -0.4873       0.00139134          87.816       0.00609633         24.6942  
0.2485                0.00612425         25.8774       0.00210456         89.3379         0.994508       -0.507045       0.00314361        -90.9427  
                      0.00151743          87.441        0.0061294         25.5591       0.00355425        -89.8597         0.994535       -0.506947  
                        0.994498        -0.50568       0.00301259        -90.8129       0.00611429          25.648       0.00197199         89.9442  
                      0.00356161        -90.6807         0.994516       -0.507553       0.00156059         87.8565       0.00614196         25.5895  
0.2584                0.00617443         26.7132       0.00226396          89.241         0.994505        -0.52725       0.00318624        -90.9177  
                      0.00167947         87.3688       0.00617507         26.4405       0.00359119        -89.8559          0.99453       -0.527123  
                        0.994497       -0.526051       0.00305706        -90.7855       0.00616342         26.5157       0.00213317         89.7954  
                      0.00359477        -90.7252          0.99451       -0.527786       0.00172734         87.8907       0.00618906         26.4708  
0.2683                0.00622504         27.5356       0.00241965         89.1649         0.994503       -0.547458       0.00323238        -90.9002  
                      0.00183891         87.3019       0.00622259         27.3095       0.00363044        -89.8574         0.994525       -0.547305  
                        0.994496       -0.546444       0.00310518        -90.7681       0.00621381         27.3695       0.00229083         89.6743  
                      0.00362969        -90.7717         0.994505       -0.548006       0.00189178         87.9207       0.00623762         27.3382  
0.2782                0.00627619         28.3464       0.00257206         89.1051           0.9945        -0.56767       0.00328164        -90.8898  
                      0.00199583         87.2384       0.00627185         28.1655       0.00367184         -89.864         0.994519        -0.56749  
                        0.994494       -0.566844       0.00315654        -90.7599       0.00626544         28.2092       0.00244534         89.5749  
                      0.00366619        -90.8194         0.994499       -0.568214       0.00205404         87.9477       0.00628759         28.1915  
0.2881                0.00632801         29.1465       0.00272153         89.0582         0.994496       -0.587884        0.0033337        -90.8862  
                      0.00215028         87.1763       0.00632277          29.008       0.00371525        -89.8757         0.994514       -0.587678  
                        0.994491       -0.587242       0.00321076        -90.7603       0.00631829          29.035       0.00259702         89.4926  
                      0.00370414        -90.8678         0.994493       -0.588414       0.00221426         87.9726       0.00633895         29.0307  
0.298                 0.00638063         29.9365       0.00286841         89.0217         0.994493         -0.6081       0.00338826        -90.8888  
                       0.0023023         87.1133       0.00637526         29.8368       0.00376055        -89.8921         0.994508       -0.607868  
                        0.994487       -0.607633       0.00326754        -90.7685       0.00637234         29.8468       0.00274616         89.4242  
                      0.00374338        -90.9159         0.994487       -0.608606       0.00237259          87.996       0.00639167         29.8559  
0.3079                0.00643415         30.7166       0.00301297         88.9937         0.994489       -0.628318       0.00344508        -90.8974  
                      0.00245186         87.0468       0.00642926         30.6516       0.00380759        -89.9131         0.994502        -0.62806  
                        0.994482       -0.628011       0.00332659        -90.7839       0.00642757         30.6448       0.00289302         89.3671  
                      0.00378379        -90.9631         0.994482       -0.628793       0.00252915         88.0183       0.00644572         30.6669  
0.3178                0.00648865         31.4866       0.00315545         88.9726         0.994485       -0.648538       0.00350394        -90.9115  
                      0.00259884         86.9733       0.00648471         31.4525       0.00385627        -89.9384         0.994496       -0.648254  
                        0.994477       -0.648376       0.00338767        -90.8059       0.00648395         31.4289       0.00303783         89.3193  
                      0.00382524        -91.0082         0.994476       -0.648975       0.00268406         88.0399       0.00650107          31.464  
0.3277                0.00654419         32.2464       0.00329608         88.9574          0.99448       -0.668758       0.00356461        -90.9307  
                      0.00274305         86.8879       0.00654156         32.2393       0.00390646        -89.9679          0.99449       -0.668448  
                        0.994472       -0.668726       0.00345056        -90.8338       0.00654146         32.1993       0.00318079         89.2793  
                       0.0038676        -91.0505          0.99447       -0.669153       0.00283743          88.061       0.00655768          32.247  
0.3376                 0.0066008         32.9956       0.00343506         88.9469         0.994475        -0.68898       0.00362694        -90.9545  
                      0.00288413         86.7829       0.00659975          33.012       0.00395805        -90.0014         0.994483       -0.688642  
                        0.994466       -0.689062       0.00351507        -90.8672       0.00660007         32.9561       0.00332207         89.2458  
                      0.00391078        -91.0887         0.994464       -0.689328       0.00298939         88.0818       0.00661552         33.0161  
0.3475                0.00665852          33.734       0.00357257         88.9406          0.99447       -0.709203       0.00369074        -90.9827  
                      0.00302145         86.6462       0.00665924         33.7707       0.00401092        -90.0388         0.994476       -0.708837  
                        0.994459       -0.709385       0.00358101        -90.9056       0.00665976         33.6994       0.00346186         89.2179  
                      0.00395467        -91.1219         0.994457       -0.709499       0.00314004         88.1025       0.00667456         33.7714  
0.3574                0.00671734         34.4614       0.00370879         88.9379         0.994465       -0.729427       0.00375587        -91.0149  
                      0.00315391         86.4555       0.00671998         34.5153       0.00406496        -90.0799          0.99447       -0.729032  
                        0.994453       -0.729695       0.00364823        -90.9485       0.00672051         34.4292        0.0036003         89.1947  
                      0.00399919        -91.1488         0.994451       -0.729668       0.00328951         88.1232       0.00673476         34.5129  
0.3673                0.00677726         35.1776       0.00384386         88.9382         0.994459       -0.749651       0.00382218        -91.0508  
                       0.0032796         86.1675       0.00678192         35.2461       0.00412006        -90.1247         0.994463       -0.749227  
                        0.994446       -0.749993       0.00371656        -90.9956       0.00678227         35.1458       0.00373754         89.1756  
                      0.00404428        -91.1682         0.994445       -0.749834       0.00343792         88.1442        0.0067961         35.2407  
0.3772                0.00683826         35.8823       0.00397796         88.9413         0.994453       -0.769877       0.00388953        -91.0902  
                      0.00339495         85.6831       0.00684504          35.963       0.00417607        -90.1731         0.994456       -0.769422  
                        0.994438       -0.770281       0.00378586        -91.0467       0.00684504         35.8491       0.00387373           89.16  
                      0.00408989         -91.179         0.994438       -0.769998       0.00358538         88.1655       0.00685853         35.9551  
0.3871                0.00690034         36.5754       0.00411122         88.9468         0.994447       -0.790103       0.00395778        -91.1327  
                      0.00349372         84.7287       0.00690928         36.6663       0.00423288        -90.2251         0.994448       -0.789617  
                        0.994431        -0.79056       0.00385597        -91.1015       0.00690877         36.5393         0.004009         89.1476  
                      0.00413598        -91.1802         0.994432        -0.79016       0.00373205         88.1875       0.00692203         36.6561  
0.397                 0.00696345         37.2569       0.00424382         88.9548         0.994441       -0.810331       0.00402678        -91.1784  
                      0.00357516         82.3052        0.0069746          37.356        0.0042903        -90.2807         0.994441       -0.809813  
                        0.994423        -0.81083       0.00392674          -91.16       0.00697344         37.2167       0.00414351         89.1379  
                      0.00418256        -91.1712         0.994425       -0.810321       0.00387808         88.2103       0.00698655         37.3439  
0.4069                0.00702756         37.9268       0.00437591         88.9652         0.994435       -0.830561       0.00409637        -91.2271  
                      0.00391776         74.8663       0.00704098         38.0323       0.00434817        -90.3401         0.994433       -0.830008  
                        0.994415       -0.831094       0.00399801        -91.2221         0.007039         37.8812       0.00427741         89.1309  
                      0.00422964        -91.1517         0.994418        -0.83048       0.00402366         88.2343       0.00705205         38.0187  
0.4168                0.00709263         38.5851       0.00450769          88.978         0.994428       -0.850793       0.00416636        -91.2787  
                      0.00495307         83.4001       0.00710838         38.6954       0.00440624        -90.4037         0.994425       -0.850205  
                        0.994407       -0.851351       0.00406959         -91.288       0.00710541          38.533        0.0044109         89.1263  
