! TOUCHSTONE file generated by CST MICROWAVE STUDIO
! Date and time: Wed Oct 15 14:02:16 2014
! Project name: Untitled_1.cst
# GHZ S MA R 50
0.1                   0.00186924        -5.20183       0.00106369         90.8275         0.998061       -0.231433      0.000680283        -91.8595  
                      0.00106369         90.8275       0.00186876        -5.25115      0.000680284        -91.8597          0.99806       -0.231396  
                        0.998061       -0.231432      0.000680283        -91.8597       0.00186918        -5.20242       0.00106369         90.8277  
                     0.000680284        -91.8595          0.99806       -0.231396       0.00106369         90.8277       0.00186875        -5.25102  
0.1099                0.00186388        -5.86534        0.0011742         91.0786         0.998046       -0.254296       0.00074313        -92.2479  
                      0.00117419         91.0783       0.00186345        -5.91865      0.000743094         -92.247         0.998045       -0.254266  
                        0.998046       -0.254304      0.000743127        -92.2478        0.0018638        -5.86122        0.0011742         91.0787  
                     0.000743124        -92.2479         0.998045       -0.254265       0.00117418         91.0783       0.00186347         -5.9188  
0.1198                 0.0018581        -6.53008        0.0012848          91.292          0.99803       -0.277141      0.000805951        -92.5938  
                      0.00128479         91.2915       0.00185774        -6.58739      0.000805879        -92.5922         0.998029       -0.277117  
                        0.998029       -0.277158      0.000805945        -92.5936       0.00185801        -6.52132       0.00128479          91.292  
                     0.000805938        -92.5939         0.998029       -0.277116       0.00128475         91.2914       0.00185779        -6.58782  
0.129700008           0.00185192        -7.19634        0.0013955         91.4767         0.998013       -0.299968      0.000868741        -92.9066  
                      0.00139548          91.476       0.00185163        -7.25768      0.000868634        -92.9043         0.998012        -0.29995  
                        0.998012       -0.299994      0.000868733        -92.9064       0.00185182        -7.18302       0.00139548         91.4765  
                     0.000868722        -92.9068         0.998012       -0.299948       0.00139542         91.4758       0.00185171        -7.25836  
0.1396                0.00184533        -7.86445       0.00150629         91.6389         0.997995       -0.322777      0.000931496         -93.193  
                      0.00150626          91.638       0.00184511        -7.92982      0.000931355        -93.1901         0.997994       -0.322765  
                        0.997995       -0.322811      0.000931485        -93.1927       0.00184521        -7.84661       0.00150626         91.6386  
                     0.000931471        -93.1933         0.997994       -0.322762       0.00150618         91.6377       0.00184522        -7.93076  
0.1495                0.00183833        -8.53469       0.00161717         91.7832         0.997977       -0.345567      0.000994212        -93.4581  
                      0.00161713         91.7822       0.00183818        -8.60412      0.000994037        -93.4546         0.997976        -0.34556  
                        0.997976       -0.345609      0.000994198        -93.4577       0.00183819        -8.51241       0.00161714         91.7829  
                     0.000994181        -93.4584         0.997976       -0.345557       0.00161704         91.7819       0.00183832        -8.60531  
0.1594                0.00183093        -9.20741       0.00172815          91.913         0.997957       -0.368338       0.00105689        -93.7057  
                       0.0017281         91.9119       0.00183086        -9.28091       0.00105668        -93.7017         0.997957       -0.368336  
                        0.997957       -0.368388       0.00105687        -93.7052       0.00183078        -9.18075       0.00172811         91.9127  
                      0.00105685         -93.706         0.997957       -0.368333         0.001728         91.9116       0.00183103        -9.28233  
0.1693                0.00182312        -9.88293       0.00183923          92.031         0.997937       -0.391089       0.00111951        -93.9387  
                      0.00183917         92.0297       0.00182314        -9.96051       0.00111927        -93.9342         0.997937       -0.391092  
                        0.997937       -0.391147       0.00111949        -93.9381       0.00182296        -9.85193       0.00183918         92.0306  
                      0.00111947         -93.939         0.997936       -0.391088       0.00183905         92.0295       0.00182333        -9.96217  
0.1792                0.00181492        -10.5616        0.0019504          92.139         0.997917        -0.41382       0.00118209        -94.1595  
                      0.00195034         92.1377       0.00181502        -10.6433       0.00118182        -94.1546         0.997916       -0.413828  
                        0.997916       -0.413885       0.00118207        -94.1589       0.00181474        -10.5263       0.00195035         92.1387  
                      0.00118204        -94.1598         0.997915       -0.413823        0.0019502         92.1375       0.00181524        -10.6451  
0.1891                0.00180632        -11.2437       0.00206168         92.2387         0.997895       -0.436531       0.00124462        -94.3699  
                      0.00206161         92.2374       0.00180652        -11.3295       0.00124431        -94.3647         0.997894       -0.436543  
                        0.997894       -0.436602        0.0012446        -94.3693       0.00180612        -11.2042       0.00206163         92.2384  
                      0.00124457        -94.3703         0.997894       -0.436537       0.00206145         92.2372       0.00180676        -11.3316  
0.199                 0.00179733        -11.9297       0.00217307         92.3314         0.997873       -0.459221       0.00130709        -94.5716  
                      0.00217299           92.33       0.00179762        -12.0196       0.00130676         -94.566         0.997872       -0.459237  
                        0.997872       -0.459299       0.00130707        -94.5709       0.00179711         -11.886       0.00217301         92.3311  
                      0.00130703        -94.5719         0.997871       -0.459231       0.00217281         92.3298       0.00179789        -12.0219  
0.2089                0.00178795        -12.6198       0.00228456          92.418         0.997849       -0.481889       0.00136951        -94.7656  
                      0.00228447         92.4166       0.00178833        -12.7139       0.00136914        -94.7596         0.997848       -0.481909  
                        0.997848       -0.481974       0.00136948        -94.7649        0.0017877         -12.572       0.00228449         92.4177  
                      0.00136944        -94.7659         0.997848       -0.481902       0.00228428         92.4165       0.00178863        -12.7164  
0.2188                0.00177817        -13.3145       0.00239616         92.4994         0.997826       -0.504536       0.00143187         -94.953  
                      0.00239607         92.4979       0.00177867        -13.4128       0.00143147        -94.9467         0.997824        -0.50456  
                        0.997824       -0.504626       0.00143184        -94.9522       0.00177791        -13.2626       0.00239608         92.4991  
                       0.0014318        -94.9533         0.997824       -0.504552       0.00239585         92.4979       0.00177898        -13.4155  
0.2287                0.00176802        -14.0142       0.00250787         92.5762         0.997801       -0.527161       0.00149416        -95.1346  
                      0.00250777         92.5747       0.00176862        -14.1167       0.00149374         -95.128           0.9978       -0.527188  
                          0.9978       -0.527257       0.00149413        -95.1339       0.00176774        -13.9583       0.00250779         92.5759  
                      0.00149409        -95.1349         0.997799        -0.52718       0.00250754         92.5747       0.00176896        -14.1196  
0.2386                0.00175749        -14.7193        0.0026197          92.649         0.997776       -0.549763       0.00155639        -95.3112  
                      0.00261959         92.6475        0.0017582         -14.826       0.00155594        -95.3043         0.997774       -0.549794  
                        0.997774       -0.549865       0.00155636        -95.3104       0.00175718        -14.6594       0.00261961         92.6487  
                      0.00155631        -95.3115         0.997774       -0.549785       0.00261935         92.6476       0.00175856        -14.8291  
0.2485                0.00174658        -15.4302       0.00273165         92.7182         0.997749       -0.572342       0.00161856        -95.4833  
                      0.00273153         92.7168       0.00174741         -15.541       0.00161807        -95.4761         0.997748       -0.572376  
                        0.997748        -0.57245       0.00161852        -95.4825       0.00174625        -15.3662       0.00273155          92.718  
                      0.00161847        -95.4836         0.997748       -0.572367       0.00273127         92.7169       0.00174779        -15.5443  
0.2584                 0.0017353        -16.1472       0.00284371         92.7843         0.997722       -0.594899       0.00168065        -95.6514  
                      0.00284359         92.7829       0.00173624        -16.2623       0.00168014         -95.644         0.997721       -0.594936  
                        0.997721       -0.595012       0.00168061        -95.6506       0.00173495        -16.0794       0.00284361         92.7841  
                      0.00168056        -95.6517         0.997721       -0.594925       0.00284331          92.783       0.00173665        -16.2658  
0.2683                0.00172365         -16.871        0.0029559         92.8476         0.997695       -0.617432       0.00174267         -95.816  
                      0.00295577         92.8461       0.00172472        -16.9903       0.00174213        -95.8084         0.997693       -0.617471  
                        0.997693        -0.61755       0.00174263        -95.8152       0.00172328        -16.7992        0.0029558         92.8474  
                      0.00174257        -95.8163         0.997693        -0.61746       0.00295548         92.8464       0.00172514        -16.9939  
0.2782                0.00171164        -17.6018       0.00306822         92.9083         0.997666       -0.639941       0.00180462        -95.9774  
                      0.00306808         92.9069       0.00171284        -17.7254       0.00180405        -95.9696         0.997665       -0.639983  
                        0.997664       -0.640064       0.00180457        -95.9766       0.00171124        -17.5262       0.00306811         92.9082  
                      0.00180451        -95.9777         0.997665       -0.639971       0.00306777         92.9072       0.00171328        -17.7292  
0.2881                0.00169928        -18.3403       0.00318066         92.9668         0.997637       -0.662426       0.00186649         -96.136  
                      0.00318052         92.9653       0.00170061        -18.4682       0.00186589        -96.1279         0.997636        -0.66247  
                        0.997635       -0.662553       0.00186644        -96.1351       0.00169885        -18.2608       0.00318055         92.9667  
                      0.00186638        -96.1362         0.997636       -0.662458       0.00318019         92.9658       0.00170106        -18.4722  
0.298                 0.00168656         -19.087       0.00329324         93.0232         0.997608       -0.684887       0.00192827         -96.292  
                      0.00329309         93.0217       0.00168803        -19.2191       0.00192766        -96.2837         0.997606       -0.684933  
                        0.997605       -0.685018       0.00192823        -96.2911       0.00168611        -19.0037       0.00329312         93.0231  
                      0.00192816        -96.2922         0.997606        -0.68492       0.00329275         93.0222        0.0016885        -19.2232  
0.3079                0.00167349        -19.8423       0.00340595         93.0776         0.997577       -0.707323       0.00198998        -96.4457  
                      0.00340579         93.0762        0.0016751        -19.9786       0.00198934        -96.4371         0.997576       -0.707371  
                        0.997575       -0.707458       0.00198993        -96.4448       0.00167301        -19.7552       0.00340582         93.0776  
                      0.00198986        -96.4458         0.997575       -0.707357       0.00340543         93.0768       0.00167559        -19.9829  
0.3178                0.00166009        -20.6068        0.0035188         93.1304         0.997546       -0.729733        0.0020516        -96.5972  
                      0.00351863          93.129       0.00166185        -20.7474       0.00205094        -96.5885         0.997544       -0.729783  
                        0.997544       -0.729872       0.00205156        -96.5963       0.00165958        -20.5159       0.00351867         93.1304  
                      0.00205148        -96.5973         0.997544       -0.729769       0.00351826         93.1296       0.00166235        -20.7518  
0.3277                0.00164636        -21.3811       0.00363179         93.1815         0.997514       -0.752119       0.00211314        -96.7468  
                      0.00363161         93.1801       0.00164826         -21.526       0.00211245        -96.7378         0.997513        -0.75217  
                        0.997512       -0.752261       0.00211309        -96.7459       0.00164582        -21.2865       0.00363165         93.1815  
                      0.00211301        -96.7469         0.997512       -0.752155       0.00363123         93.1808       0.00164878        -21.5306  
0.3376                0.00163229        -22.1658       0.00374492         93.2311         0.997482       -0.774478       0.00217459        -96.8946  
                      0.00374473         93.2297       0.00163435        -22.3149       0.00217388        -96.8855          0.99748       -0.774531  
                        0.997479       -0.774624       0.00217453        -96.8937       0.00163172        -22.0675       0.00374477         93.2312  
                      0.00217445        -96.8947         0.997479       -0.774515       0.00374434         93.2306       0.00163489        -22.3197  
0.3475                0.00161791        -22.9616       0.00385819         93.2794         0.997448       -0.796812       0.00223594        -97.0408  
                        0.003858          93.278       0.00162013        -23.1149       0.00223521        -97.0315         0.997447       -0.796866  
                        0.997446       -0.796961       0.00223589        -97.0399       0.00161731        -22.8595       0.00385804         93.2795  
                       0.0022358        -97.0408         0.997446        -0.79685       0.00385759         93.2789       0.00162068        -23.1198  
0.3574                0.00160322         -23.769       0.00397162         93.3263         0.997414        -0.81912        0.0022972        -97.1854  
                      0.00397142          93.325        0.0016056        -23.9266       0.00229645        -97.1759         0.997413       -0.819174  
                        0.997412       -0.819272       0.00229715        -97.1845       0.00160259        -23.6633       0.00397146         93.3265  
                      0.00229706        -97.1855         0.997412       -0.819157         0.003971          93.326       0.00160616        -23.9316  
0.3673                0.00158822        -24.5889       0.00408519         93.3721          0.99738         -0.8414       0.00235836        -97.3287  
                      0.00408499         93.3708       0.00159077        -24.7506       0.00235759         -97.319         0.997378       -0.841456  
                        0.997377       -0.841555       0.00235831        -97.3278       0.00158756        -24.4795       0.00408503         93.3723  
                      0.00235822        -97.3287         0.997378       -0.841438       0.00408455         93.3718       0.00159134        -24.7558  
0.3772                0.00157293        -25.4219       0.00419892         93.4167         0.997345       -0.863655       0.00241943        -97.4706  
                      0.00419871         93.4154       0.00157565        -25.5878       0.00241864        -97.4608         0.997343       -0.863711  
                        0.997342       -0.863812       0.00241937        -97.4698       0.00157223        -25.3089       0.00419876         93.4169  
                      0.00241928        -97.4706         0.997343       -0.863693       0.00419826         93.4166       0.00157624        -25.5931  
0.3871                0.00155736        -26.2689       0.00431281         93.4602         0.997309       -0.885882       0.00248039        -97.6114  
                      0.00431259          93.459       0.00156025        -26.4388       0.00247958        -97.6014         0.997307       -0.885938  
                        0.997306       -0.886042       0.00248033        -97.6105       0.00155662        -26.1522       0.00431264         93.4605  
                      0.00248023        -97.6114         0.997307       -0.885919       0.00431213         93.4602       0.00156085        -26.4442  
0.397                  0.0015415        -27.1306       0.00442686         93.5027         0.997272       -0.908081       0.00254125         -97.751  
                      0.00442663         93.5015       0.00154458        -27.3045       0.00254042        -97.7409         0.997271       -0.908138  
                        0.997269       -0.908244       0.00254119        -97.7501       0.00154073        -27.0103       0.00442668         93.5031  
                      0.00254109        -97.7509          0.99727       -0.908119       0.00442616         93.5028       0.00154519        -27.3101  
0.4069                0.00152538        -28.0078       0.00454106         93.5443         0.997235       -0.930253         0.002602        -97.8895  
                      0.00454083         93.5431       0.00152865        -28.1857       0.00260115        -97.8793         0.997234       -0.930311  
                        0.997232       -0.930418       0.00260194        -97.8887       0.00152457        -27.8839       0.00454088         93.5447  
                      0.00260183        -97.8895         0.997233       -0.930291       0.00454035         93.5445       0.00152926        -28.1914  
0.4168                0.00150901        -28.9015       0.00465544         93.5849         0.997198       -0.952398       0.00266264        -98.0271  
                       0.0046552         93.5837       0.00151247        -29.0833       0.00266178        -98.0167         0.997196       -0.952455  
                        0.997194       -0.952564       0.00266258        -98.0262       0.00150815         -28.774       0.00465525         93.5853  
